Circuit: * C:\Users\duzun\OneDrive\Masaüstü\Fall 2T1\ECE 331 Analog Electronics\Lab 1\Part 3\NMOS max swing\Draft1.asc

Model "ald1101": Oxide thickness thinner than recommended for a level 2 MOSFET.
Instance "m1": Length shorter than recommended for a level 2 MOSFET.
Direct Newton iteration for .op point succeeded.
Semiconductor Device Operating Points:
                        --- MOSFET Transistors ---
Name:          m1
Model:       ald1101
Id:          5.40e-04
Vgs:         1.18e+00
Vds:         5.21e-01
Vbs:         0.00e+00
Vth:         7.13e-01
Vdsat:       3.33e-01
Gm:          2.10e-03
Gds:         2.13e-05
Gmb:         1.03e-03
Cbd:         0.00e+00
Cbs:         0.00e+00
Cgsov:       1.59e-12
Cgdov:       1.59e-12
Cgbov:       0.00e+00
Cgs:         3.17e-12
Cgd:         0.00e+00
Cgb:         0.00e+00



Date: Sun Oct 03 21:52:54 2021
Total elapsed time: 0.053 seconds.

tnom = 27
temp = 27
method = trap
totiter = 5
traniter = 0
tranpoints = 0
accept = 0
rejected = 0
matrix size = 7
fillins = 0
solver = Normal
Matrix Compiler1: 232 bytes object code size
Matrix Compiler2: 481 bytes object code size
